=== Sat 11 Jul 2026 22:16:12 AEST ===
[PKT] 02 06 9C 4C 00 48 66 48 02 10 C6 FF 00 CA 21  [V len=15]
[PKT] 02 03 9C 40 00 13 2B B0 02 20 92 04 27 74 82 02 0A 48 60 00 01 40 00 45 01 48 48 60 14 02 46 19 00 BE C2  [? len=35]
[PKT] 61 00 B0 00 00 04 03 00 C8 07 B4 1A 07 0B 16 0F 06 15 15 00 00 40 1E 10 1F 6C 0F  [V len=27]
[PKT] 61 00 00 00 00 04 03 00 C8 07 B4 1A 07 0B 16 0F 06 15 15 00 00 40 1E 10 B0 13  [V len=26]
[PKT] 02 03 9C 40 00 13 2B B0 02 20 F2 02 D0 82 27 24 48 48 60 00 01 40 00 45 01 48 48 60 14 02 46 19 00 BE C2  [? len=35]
[PKT] 02 06 9C 49 00 15 B7 B0 02 10 96 01 15 1B FF  [V len=15]
[PKT] 02 03 9C 40 00 13 2B B0 02 20 F2 20 D0 82 27 14 48 48 60 00 01 40 00 45 01 48 48 60 14 02 46 19 00 BE EF  [? len=35]
[PKT] 61 00 B0 00 00 04 03 00 C8 07 B4 1A 07 0B 16 0F 06 15 15 00 00 40 1E 10 1F 6C 0F  [V len=27]
[PKT] 61 00 00 00 00 04 03 00 C8 07 B4 1A 07 0B 16 10 06 15 15 00 00 40 1E 10 3C 23  [V len=26]
[PKT] 02 03 9C 40 00 13 2B B0 02 20 92 04 12 74 FE 04 48 48 60 00 01 40 00 45 01 48 00 0A 60 14 02 46 19 00 BF C4  [? len=36]
[PKT] 02 06 9C 49 00 15 B7 B0 02 10 96 FF 15 1B FF  [V len=15]
[PKT] 02 03 9C 40 00 13 2B B0  [V len=8]
[PKT] 02 06 9C 4C 00 48 66 48 02 F0 9C 0A 48 16 FA  [V len=15]
[PKT] 02 03 9C 40 00 13 2B B0 02 20 92 04 12 74 82 02 0A 48 60 00 01 40 00 45 01 48 48 60 14 02 46 19 00 BE C2  [? len=35]
[PKT] 61 00 AF 00 00 04 03 00 C8 07 B4 1A 07 0B 16 10 06 15 15 00 00 40 1E 10 1F 91 16  [V len=27]
[PKT] 61 00 00 00 40 04 03 00 C8 07 B4 1A 07 0B 16 10 06 15 15 00 00 40 1E 10 32 EC  [V len=26]
[PKT] 02 03 9C 40 00 13 2B B0 02 20 92 04 12 74 82 01 0A 48 60 00 01 40 00 45 01 48 48 60 14 02 46 19 00 BE EF  [? len=35]
[PKT] 02 06 9C 49 00 15 B7 B0 02 10 96 01 15 3B FF  [V len=15]
[PKT] 02 03 9C 40 00 13 2B B0 02 20 92 04 72 74 82 00 0A 48 60 00 00 40 00 15 01 48 48 60 14 00 A0 04 19 00 BF C4  [? len=36]
[PKT] 02 06 9C 4A 00 01 47 BF 02 10 A6 01 01 D4 FF  [V len=15]
[PKT] 02 03 9C 40 00 13 2B B0 02 20 92 04 12 74 82 00 0A 48 60 00 01 40 00 45 01 48 48 60 14 00 A0 04 19 00 BF C4  [? len=36]
[PKT] 02 06 9C 4B 00 48 D7 89 02 10 B6 01 48 D7 E2  [V len=15]
[PKT] 02 03 9C 40 00 13 2B B0  [V len=8]
[PKT] 61 00 AF 00 00 04 03 00 C8 07 B4 1A 07 0B 16 10 06 15 15 00 00 40 1E 10 1F 91 16  [V len=27]
[PKT] 61 00 00 00 04 04 03 00 D2 07 B4 1A 07 0B 16 10 06 15 15 00 00 40 1E 10 46 CC  [V len=26]
[PKT] 02 03 9C 40 00 13 2B B0 02 20 92 04 12 74 82 02 0A 48 60 00 01 40 00 45 01 48 48 60 14 02 46 19 00 BE C2  [? len=35]
[PKT] 02 06 9C 49 00 15 B7 B0 02 10 96 01 15 1B FF  [V len=15]
[PKT] 02 03 9C 40 00 13 2B B0 02 20 92 04 12 74 FE 14 48 48 60 00 00 40 00 15 01 48 48 60 14 02 19 19 00 BE EF  [? len=35]
[PKT] 02 06 9C 4B 00 58 D6 45  [V len=8]
[PKT] 02 03 9C 40 00 13 2B B0  [V len=8]
[PKT] 61 00 AF 00 00 04 03 00 D2 07 B4 1A 07 0B 16 10 06 15 15 00 00 40 1E 10 1F BA 71  [V len=27]
[PKT] 61 00 00 00 02 04 02 00 D2 07 B4 1A 07 0B 16 10 06 15 15 00 00 40 1E 10 9F 56  [V len=26]
[PKT] 02 03 9C 40 00 13 2B B0 02 20 92 04 12 FC 27 04 48 48 60 00 01 40 00 45 01 00 0A 48 60 14 02 46 19 00 BF C4  [? len=36]
[PKT] 02 06 9C 49 00 15 B7 B0 02 10 96 01 15 1B FF  [V len=15]
[PKT] 02 03 9C 40 00 13 2B B0 02 20 92 04 12 74 82 00 0A 48 60 00 01 40 00 45 01 48 48 60 14 02 46 19 00 BF C4  [? len=35]
[PKT] 02 06 9C 4B 00 58 D6 45  [V len=8]
[PKT] 02 03 9C 40 00 13 2B B0  [V len=8]
[PKT] 02 06 9C 4D 00 40 36 4E 02 10 D6 01 40 93 FA  [V len=15]
[PKT] 02 03 9C 40 00 13 2B B0 02 20 F2 02 D0 82 27 24 48 48 60 00 01 40 00 45 01 48 48 40 14 02 46 19 00 15 F2  [? len=35]
[PKT] 61 00 AF 00 00 04 02 00 D2 07 B4 1A 07 0B 16 10 06 15 15 00 00 40 1E 10 1F 87 8D  [V len=27]
[PKT] 61 00 00 00 02 04 03 00 D2 07 B4 1A 07 0B 16 10 06 15 15 00 00 40 1E 10 CE AA  [V len=26]
[PKT] 02 03 9C 40 00 13 2B B0 02 20 92 04 27 74 82 01 0A 48 60 00 01 40 00 45 01 48 48 40 14 02 46 19 00 15 DF  [? len=35]
[PKT] 02 06 9C 49 00 15 B7 B0 02 10 96 01 15 B7 FF  [V len=15]
[PKT] 02 03 9C 40 00 13 2B B0 02 20 92 04 F2 10 12 14 48 48 60 00 01 40 00 45 01 48 48 40 14 02 46 19 00 15 7D  [? len=35]
[PKT] 02 06 9C 4B 00 58 D6 45 02 10 B6 01 58 5D FF  [V len=15]
[PKT] 02 03 9C 40 00 13 2B B0 02 20 32 04 12 74 82 02 0A 48 60 00 01 40 00 45 01 58 48 40 14 02 46 19 00 05 F1  [? len=35]
[PKT] 02 06 9C 4D 00 60 37 96 02 10 D6 01 60 37 F9  [V len=15]
[PKT] 02 03 9C 40 00 13 2B B0 02 20 92 04 12 74 82 01 0A 48 60 00 01 40 00 45 01 58 48 60 00 11 02 46 19 00 AE EC  [? len=36]
[PKT] 61 00 AF 00 00 04 03 00 D2 07 B4 1A 07 0B 16 10 06 15 15 00 00 40 1E 10 1F BA 71  [V len=27]
[PKT] 61 00 00 00 01 05 03 00 D2 07 B4 1A 07 0B 16 10 06 15 15 00 00 40 1E 10 B7 65  [V len=26]
[PKT] 02 03 9C 40 00 13 2B B0 02 20 F2 02 D0 82 27 04 58 48 60 00 01 40 00 45 01 58 48 60 14 02 46 19 00 AE FD  [? len=35]
[PKT] 02 06 9C 49 00 15 B7 B0 02 10 96 01 15 1B FF  [V len=15]
[PKT] 02 03 9C 40 00 13 2B B0 02 20 32 04 12 74 82 00 05 48 60 00 01 40 00 45 01 58 48 60 14 02 46 19 00 AE FD  [? len=35]
[PKT] 02 06 9C 4B 00 6A 57 90 02 10 B6 01 6A 15 FE  [V len=15]
[PKT] 02 03 9C 40 00 13 2B B0 02 E0 26 20 D0 82 27 24 58 48 60 00 01 C0 00 15 01 6A 48 60 14 02 46 19 00 00 47 FF  [? len=36]
[PKT] 61 00 AF 00 00 05 03 00 DC 07 B4 1A 07 0B 16 10 06 15 15 00 00 40 1E 10 1F E3 C3  [V len=27]
[PKT] 61 00 00 00 01 04 03 00 DC 07 B4 1A 07 0B 16 10 06 15 15 00 00 40 1E 10 0E FD  [V len=26]
[PKT] 02 03 9C 40 00 13 2B B0 02 E0 26 20 D0 82 27 24 58 48 60 00 01 C0 00 15 01 6A 48 60 14 02 46 19 00 00 47 FF  [? len=36]
[PKT] 02 06 9C 49 00 15 B7 B0 02 10 96 3F 15 1B FF  [V len=15]
[PKT] 02 03 9C 40 00 13 2B B0 02 20 92 04 12 74 82 01 05 48 60 00 01 40 00 45 01 6A 48 60 14 02 46 19 00 1D DB  [? len=35]
[PKT] 02 06 9C 4B 00 58 D6 45 02 10 B6 01 58 5D FF  [V len=15]
[PKT] 02 03 9C 40 00 13 2B B0 02 20 92 04 12 74 82 02 ED 48 60 00 01 40 00 45 01 58 48 60 14 02 46 19 00 8E F1  [? len=35]
[PKT] 61 00 AF 00 00 04 03 00 D2 07 B4 1A 07 0B 16 10 06 15 15 00 00 40 1E 10 1F BA 71  [V len=27]
[PKT] 61 00 00 00 00 04 03 00 D2 07 B4 1A 07 0B 16 10 06 15 15 00 00 40 1E 10 B7 48  [V len=26]
[PKT] 02 03 9C 40 00 13 2B B0  [V len=8]
[PKT] 02 06 9C 49 00 15 B7 B0  [V len=8]
[PKT] 02 03 9C 40 00 13 2B B0 02 20 92 04 27 74 82 02 2D 48 60 00 01 40 00 45 01 58 48 60 14 02 46 19 00 8E F1  [? len=35]
[PKT] 61 00 AF 00 00 04 03 00 D2 07 B4 1A 07 0B 16 10 06 15 15 00 00 40 1E 10 1F BA 71  [V len=27]
[PKT] 61 00 00 04 00 04 03 00 D2 07 B4 1A 07 0B 16 10 06 14 15 00 00 40 1E 10 E2 0C  [V len=26]
[PKT] 02 03 9C 40 00 13 2B B0 02 20 92 04 12 74 82 01 2D 48 60 00 00 40 00 15 01 58 48 60 14 02 C6 19 00 8E F4  [? len=35]
[PKT] 02 06 9C 49 00 14 76 70 02 F0 9C 52 14 17 FF  [V len=15]
[PKT] 02 03 9C 40 00 13 2B B0 02 03 92 04 12 74 82 01 2D 48 60 00 01 01 00 11 01 58 48 60 14 02 46 19 00 B3 FD  [? len=35]
[PKT] 02 06 9C 49 00 14 76 70 02 10 7E 0A 14 17 FF  [V len=15]
[PKT] 02 03 9C 40 00 13 2B B0 02 20 92 04 12 74 82 00 05 48 60 00 01 40 00 11 01 58 48 60 14 02 46 19 00 93 F9  [? len=35]
[PKT] 61 00 AF 00 00 04 03 00 D2 07 B4 1A 07 0B 16 11 06 14 14 00 00 40 1E 10 1F 3A B8  [V len=27]
[PKT] 61 00 00 04 00 04 03 00 D2 07 B4 1A 07 0B 16 11 06 15 14 00 00 40 1E 10 FE 8D  [V len=26]
[PKT] 02 03 9C 40 00 13 2B B0  [V len=8]
[PKT] 02 06 9C 49 00 15 B7 B0  [V len=8]
[PKT] 02 03 9C 40 00 13 2B B0 02 03 92 04 12 74 82 00 05 48 60 00 01 01 00 11 01 58 48 60 14 02 46 19 00 93 F9  [? len=35]
[PKT] 02 06 9C 49 00 15 B7 B0 02 10 96 01 15 1B FF  [V len=15]
[PKT] 02 03 9C 40 00 13 2B B0 02 20 92 04 12 74 82 00 05 48 60 00 00 40 00 15 01 58 48 60 14 02 46 19 00 AE FD  [? len=35]
[PKT] 61 00 AF 00 00 04 03 00 D2 07 B4 1A 07 0B 16 11 06 15 15 00 00 40 1E 10 1F EB B4  [V len=27]
[PKT] 61 00 00 04 00 04 03 00 D2 07 B4 1A 07 0B 16 11 06 15 15 00 00 40 1E 10 FF 5C  [V len=26]
[PKT] 02 03 9C 40 00 13 2B B0 02 20 92 04 12 74 82 00 05 48 60 00 01 40 00 45 01 58 48 60 14 02 C6 00 46 00 AE FD  [? len=36]
[PKT] 02 06 9C 49 00 15 B7 B0 02 10 96 01 15 B7 FF  [V len=15]
[PKT] 02 03 9C 40 00 13 2B B0  [V len=8]
[PKT] 61 00 AF 00 00 04 03 00 D2 07 B4 1A 07 0B 16 11 06 15 15 00 00 40 1E 10 1F EB B4  [V len=27]
[PKT] 61 00 00 00 40 00 03 00 D2 07 B4 1A 07 0B 16 11 06 15 15 00 00 00 1E 10 44 F3  [V len=26]
[PKT] 02 03 9C 40 00 13 2B B0 02 20 92 04 12 74 82 00 05 48 60 00 01 40 00 45 01 58 48 60 14 02 46 19 00 AE FD  [? len=35]
[PKT] 02 06 9C 49 00 FF 36 3F  [V len=8]
[PKT] 02 03 9C 40 00 13 2B B0  [V len=8]
[PKT] 02 06 9C 49 00 FF 36 3F 02 10 96 01 FF D3 FE  [V len=15]
[PKT] 02 03 9C 40 00 13 2B B0 02 20 92 04 12 74 FE 10 58 48 60 00 00 40 00 FF 01 58 48 60 14 02 19 19 00 82 FB  [? len=35]
[PKT] 02 06 9C 4A 00 00 86 7F 02 10 A6 01 00 D8 FF  [V len=15]
[PKT] 02 03 9C 40 00 13 2B B0 02 20 92 04 12 74 82 00 58 48 60 00 29 40 00 00 00 05 48 00 01 14 02 46 19 00 2E FF  [? len=36]
[PKT] 02 06 9C 4B 00 50 D7 83 02 10 B6 01 50 FD 83  [V len=15]
[PKT] 02 03 9C 40 00 13 2B B0 02 20 92 04 12 74 7E 24 58 48 60 00 00 4A 00 FF 00 50 48 60 14 02 19 19 00 27 FD  [? len=35]
[PKT] 02 06 9C 4D 1F E0 3E 06  [V len=8]
[PKT] 02 03 9C 40 00 13 2B B0 02 20 92 04 12 74 82 02 05 48 00 01 00 29 40 00 00 00 05 48 60 00 11 02 46 19 00 27 FD  [? len=37]
[PKT] 61 00 AF 00 00 04 03 00 D2 07 B4 1A 07 0B 16 11 06 15 00 00 00 00 1E 10 1F BA B5  [V len=27]
[PKT] 61 00 00 00 00 00 03 00 D2 07 B4 1A 07 0B 16 11 06 15 00 00 00 00 1E 10 48 F9  [V len=26]
[PKT] 02 03 9C 40 00 13 2B B0 02 20 92 04 F2 10 12 14 58 48 60 00 29 40 00 00 00 05 48 60 14 02 46 19 00 27 FD  [? len=35]
[PKT] 02 06 9C 49 00 FF 36 3F 02 10 96 01 FF D3 FE  [V len=15]
[PKT] 02 03 9C 40 00 13 2B B0 02 20 F2 02 D0 82 27 14 58 48 60 00 29 40 00 00 00 05 48 60 14 02 46 19 00 27 FD  [? len=35]
[PKT] 02 06 9C 49 00 FF 36 3F 02 30 96 01 FF D3 FE  [V len=15]
[PKT] 02 03 9C 40 00 13 2B B0 02 20 92 04 12 74 82 00 05 48 60 00 01 40 00 00 00 05 48 60 14 02 46 19 00 5A E2  [? len=35]
[PKT] 02 06 9C 4D 1F E0 3E 06 02 06 D6 7D E0 32  [V len=14]
[PKT] 02 03 9C 40 00 13 2B B0 02 20 F2 02 D0 82 27 04 50 48 60 00 01 40 00 00 00 05 48 60 14 02 46 19 00 5A E2  [? len=35]
[PKT] 61 00 AF 00 00 04 03 00 D2 07 B4 1A 07 0B 16 11 06 15 00 00 00 00 1E 10 1F BA B5  [V len=27]
[PKT] 61 00 00 00 00 00 03 00 D2 07 B4 1A 07 0B 16 11 06 15 00 00 00 00 1E 10 48 F9  [V len=26]
[PKT] 02 03 9C 40 00 13 2B B0  [V len=8]
[PKT] 02 06 9C 49 00 FF 36 3F 02 10 96 01 FF D3 FE  [V len=15]
[PKT] 02 03 9C 40 00 13 2B B0 02 20 92 04 12 74 82 00 05 48 60 00 01 40 00 00 00 05 48 60 14 02 46 19 00 5A E2  [? len=35]
[PKT] 02 06 9C 49 00 FF 36 3F 02 10 96 01 FF D3 FE  [V len=15]
[PKT] 02 03 9C 40 00 13 2B B0 02 20 92 04 12 74 82 00 05 48 60 00 01 40 00 FF 00 50 48 60 14 02 46 19 00 00 AB FC  [? len=36]
[PKT] 61 00 AF 00 00 04 03 00 D2 07 B4 1A 07 0B 16 11 06 15 00 00 00 00 1E 10 1F BA B5  [V len=27]
[PKT] 61 00 00 00 00 00 03 00 D2 07 B4 1A 07 0B 16 11 06 15 00 00 00 00 1E 10 48 F9  [V len=26]
[PKT] 02 03 9C 40 00 13 2B B0 02 20 92 04 12 FC 27 04 50 48 60 00 01 40 00 00 00 05 48 60 14 02 46 19 00 5A E2  [? len=35]
[PKT] 02 06 9C 49 00 FF 36 3F 02 10 96 01 FF D3 FE  [V len=15]
[PKT] 02 03 9C 40 00 13 2B B0 02 20 92 04 12 74 82 00 05 48 60 00 01 40 00 00 00 05 48 60 14 02 19 19 00 5A E2  [? len=35]
[PKT] 02 06 9C 49 00 FF 36 3F 02 10 96 01 FF F3 3F  [V len=15]
[PKT] 02 03 9C 40 00 13 2B B0 02 20 92 04 F2 10 12 04 50 48 60 00 01 40 00 00 00 50 48 60 14 02 46 19 00 5A 89  [? len=35]
[PKT] 61 00 AF 00 00 04 03 00 D2 07 B4 1A 07 0B 16 11 06 15 00 00 00 00 1E 10 1F BA B5  [V len=27]
[PKT] 61 00 00 00 00 00 03 00 D2 07 B4 1A 07 0B 16 11 06 15 00 00 00 00 1E 10 48 F9  [V len=26]
[PKT] 02 03 9C 40 00 13 2B B0 02 20 92 04 12 74 82 00 05 48 60 00 01 40 00 00 00 FD 00 0A 60 14 02 46 19 00 5A E2  [? len=36]
[PKT] 02 06 9C 49 00 FF 36 3F 02 F0 9C 52 FF D3 FE  [V len=15]
[PKT] 02 03 9C 40 00 13 2B B0 02 20 92 04 12 74 82 00 05 48 60 00 01 40 00 00 00 05 48 60 14 02 46 19 00 5A E2  [? len=35]
[PKT] 02 06 9C 49 00 FF 36 3F 02 10 96 01 FF D3 FE  [V len=15]
[PKT] 02 03 9C 40 00 13 2B B0 02 20 92 04 12 74 FE 10 50 48 60 00 01 40 00 00 00 50 48 60 14 02 46 19 00 5A E2  [? len=35]
[PKT] 61 00 AF 00 00 04 03 00 D2 07 B4 1A 07 0B 16 11 06 15 00 00 00 00 1E 10 1F BA B5  [V len=27]
[PKT] 61 00 00 00 00 00 03 00 D2 07 B4 1A 07 0B 16 11 06 15 00 00 00 00 1E 10 48 F9  [V len=26]

=== Sat 11 Jul 2026 22:18:12 AEST ===
