=== Sat 11 Jul 2026 22:29:21 AEST — zone+mode mapping capture ===
[PKT] 02 06 9C 49 00 FF 36 3F 02 10 96 01 FF D3 FE  [V len=15]
[PKT] 02 03 9C 40 00 13 2B B0 02 E0 26 20 D0 82 27 04 50 48 60 00 01 C0 00 FF 00 50 48 60 14 02 46 19 00 00 AB FC  [? len=36]
[PKT] 02 06 9C 49 00 FF 36 3F 02 10 96 FF FF D3 FE  [V len=15]
[PKT] 02 03 9C 40 00 13 2B B0 02 20 92 04 12 74 82 00 05 48 60 00 01 40 00 00 00 05 48 60 00 11 02 46 19 00 5A E2  [? len=36]
[PKT] 02 06 9C 4C 00 48 66 48  [V len=8]
[PKT] 02 03 9C 40 00 13 2B B0  [V len=8]
[PKT] 61 00 AF 00 00 04 03 00 D2 07 B4 1A 07 0B 16 25 06 15 00 00 00 00 1E 10 1F FB 9F  [V len=27]
[PKT] 61 00 00 00 00 00 03 00 D2 07 B4 1A 07 0B 16 25 06 15 00 00 00 00 1E 10 2E 38  [V len=26]
[PKT] 02 03 9C 40 00 13 2B B0 02 E0 26 20 D0 82 27 04 50 48 60 00 01 C0 00 FF 00 50 48 60 14 02 46 19 00 00 AB FC  [? len=36]
[PKT] 02 06 9C 49 00 FF 36 3F 02 10 96 01 FF D3 FE  [V len=15]
[PKT] 02 03 9C 40 00 13 2B B0 02 20 92 04 12 74 82 00 05 48 60 00 01 40 00 FF 00 50 48 60 14 02 46 19 00 00 AB FC  [? len=36]
[PKT] 02 06 9C 49 00 FF 36 3F 02 10 7E 0A FF D3 FE  [V len=15]
[PKT] 02 03 9C 40 00 13 2B B0 02 20 F2 02 D0 82 27 04 50 48 60 00 01 40 00 00 00 05 48 60 14 02 46 19 00 5A E2  [? len=35]
[PKT] 02 06 9C 4C 00 48 66 48 02 10 C6 01 48 16 FA  [V len=15]
[PKT] 02 03 9C 40 00 13 2B B0 02 20 F2 02 D0 82 27 24 50 48 60 00 01 40 00 00 00 05 48 60 14 02 46 19 00 5B E4  [? len=35]
[PKT] 61 00 AF 00 00 04 03 00 D2 07 B4 1A 07 0B 16 25 06 15 00 00 00 00 1E 10 1F FB 9F  [V len=27]
[PKT] 61 00 00 00 40 04 03 00 D2 07 B4 1A 07 0B 16 25 06 15 00 00 00 40 1E 10 D0 13  [V len=26]
[PKT] 02 03 9C 40 00 13 2B B0 02 20 92 04 12 74 82 02 05 48 60 00 00 40 00 FF 00 50 48 60 14 02 C6 19 00 5B E4  [? len=35]
[PKT] 02 06 9C 49 00 15 B7 B0 02 06 96 01 15 1B FF  [V len=15]
[PKT] 02 03 9C 40 00 13 2B B0 02 20 92 04 12 74 82 01 50 48 60 00 01 40 00 45 00 50 48 00 01 14 02 46 19 00 77 E5  [? len=36]
[PKT] 02 06 9C 49 00 15 B7 B0 02 10 2E 01 15 1B FF  [V len=15]
[PKT] 02 03 9C 40 00 13 2B B0 02 20 92 04 12 FC 27 14 50 48 60 00 01 40 00 45 00 00 05 48 60 14 02 46 19 00 77 E5  [? len=36]
[PKT] 02 06 9C 4A 00 01 47 BF 02 06 A6 01 01 D4 FF  [V len=15]
[PKT] 02 03 9C 40 00 13 2B B0 02 20 92 04 32 74 82 00 05 48 60 00 01 40 00 45 01 00 05 48 60 14 02 46 19 00 27 F1  [? len=36]
[PKT] 02 06 9C 4B 00 58 D6 45  [V len=8]
[PKT] 02 03 9C 40 00 13 2B B0 02 20 92 04 12 74 7E 04 50 48 60 00 00 40 00 15 01 50 48 60 14 02 19 19 00 27 F1  [? len=35]
[PKT] 02 06 9C 4D 00 60 37 96 02 F0 9C 53 60 93 FE  [V len=15]
[PKT] 02 03 9C 40 00 13 2B B0 02 03 92 04 12 74 82 02 50 48 60 00 01 40 00 45 01 50 48 60 14 02 46 19 00 26 F8  [? len=35]
[PKT] 61 00 B0 00 00 04 03 00 D2 07 B4 1A 07 0B 16 25 06 15 15 00 00 40 1E 10 1F 66 22  [V len=27]
[PKT] 61 00 00 04 00 04 03 00 D2 07 B4 1A 07 0B 16 25 06 00 15 00 00 40 1E 10 DD 5C  [V len=26]
[PKT] 02 03 9C 40 00 13 2B B0 02 20 92 04 12 74 82 01 05 48 60 00 01 40 00 45 01 50 48 60 14 02 46 19 00 26 F7  [? len=35]
[PKT] 02 06 9C 49 00 00 76 7F 02 F0 9C 52 00 D7 FF  [V len=15]
[PKT] 02 03 9C 40 00 13 2B B0 02 03 92 04 12 74 82 00 50 48 60 00 01 40 00 00 40 50 48 60 14 02 46 19 00 2F C6  [? len=35]
[PKT] 02 06 9C 49 00 00 76 7F 02 10 96 01 00 D7 FF  [V len=15]
[PKT] 02 03 9C 40 00 13 2B B0 02 20 92 04 12 74 82 00 05 48 60 00 01 40 00 00 40 50 48 60 14 02 46 19 00 2F C6  [? len=35]
[PKT] 02 06 9C 4B 00 58 D6 45  [V len=8]
[PKT] 02 03 9C 40 00 13 2B B0  [V len=8]
[PKT] 02 06 9C 4C 00 48 66 48 02 10 C6 01 48 16 FA  [V len=15]
[PKT] 02 03 9C 40 00 13 2B B0 02 20 F2 02 D0 82 27 24 50 48 60 00 01 40 00 00 40 50 48 60 14 02 46 19 00 2E C0  [? len=35]
[PKT] 61 00 AF 00 00 04 03 00 D2 07 B4 1A 07 0B 16 25 06 00 00 00 00 40 1E 10 1F 2F 6C  [V len=27]
[PKT] 61 00 00 04 00 04 03 00 D2 07 B4 1A 07 0B 16 25 06 01 00 00 00 40 1E 10 CF 59  [V len=26]
[PKT] 02 03 9C 40 00 13 2B B0 02 20 F2 02 D0 82 27 14 50 48 60 00 01 40 00 00 40 50 48 60 14 02 46 19 00 2E ED  [? len=35]
[PKT] 02 06 9C 49 00 01 B7 BF 02 10 96 01 01 DB FF  [V len=15]
[PKT] 02 03 9C 40 00 13 2B B0 02 20 92 04 27 74 82 00 05 48 60 00 01 40 00 40 01 50 48 60 14 02 46 19 00 12 F9  [? len=35]
[PKT] 02 06 9C 49 00 01 B7 BF 02 10 96 01 01 DB FF  [V len=15]
[PKT] 02 03 9C 40 00 13 2B B0 02 20 F2 02 D0 82 27 04 50 48 60 00 01 40 00 40 01 50 48 60 14 02 46 19 00 12 F9  [? len=35]
[PKT] 02 06 9C 4B 00 58 D6 45  [V len=8]
[PKT] 02 03 9C 40 00 13 2B B0  [V len=8]
[PKT] 02 06 9C 4C 00 48 66 48 02 10 FE 4C 48 16 FA  [V len=15]
[PKT] 02 03 9C 40 00 13 2B B0 02 20 92 04 12 74 FE 14 50 48 60 00 01 40 00 40 01 50 00 0A 60 14 02 46 19 00 13 D2  [? len=36]
[PKT] 61 00 B0 00 00 04 03 00 D2 07 B4 1A 07 0B 16 25 06 01 01 00 00 40 1E 10 1F 32 DC  [V len=27]
[PKT] 61 00 00 04 00 04 03 00 D2 07 B4 1A 07 0B 16 25 06 03 01 00 00 40 1E 10 ED 48  [V len=26]
[PKT] 02 03 9C 40 00 13 2B B0 02 20 92 04 F2 10 12 14 50 48 60 00 01 40 00 40 01 50 48 60 14 02 46 19 00 13 49  [? len=35]
[PKT] 02 06 9C 49 00 03 36 7E 02 10 96 01 03 F3 7E  [V len=15]
[PKT] 02 03 9C 40 00 13 2B B0 02 20 92 04 12 74 0E 04 50 48 60 00 01 40 00 20 01 50 00 0A 60 14 02 46 19 00 6B D7  [? len=36]
[PKT] 02 06 9C 49 00 03 36 7E  [V len=8]
[PKT] 02 03 9C 40 00 13 2B B0  [V len=8]
[PKT] 02 06 9C 4B 00 58 D6 45 02 10 B6 01 58 5D FF  [V len=15]
[PKT] 02 03 9C 40 00 13 2B B0 02 20 92 04 12 74 82 02 05 48 60 00 01 40 00 20 01 58 48 60 14 02 46 19 00 62 E8  [? len=35]
[PKT] 61 00 B0 00 00 04 03 00 D2 07 B4 1A 07 0B 16 25 06 03 03 00 00 40 1E 10 1F 90 C5  [V len=27]
[PKT] 61 00 00 00 00 04 03 00 D2 07 B4 1A 07 0B 16 26 06 03 03 00 00 40 1E 10 BD DE  [V len=26]
[PKT] 02 03 9C 40 00 13 2B B0 02 20 92 04 12 74 0E 14 50 48 60 00 01 40 00 20 01 58 00 0A 60 14 02 46 19 00 62 FF  [? len=36]
[PKT] 02 06 9C 49 00 03 36 7E  [V len=8]
[PKT] 02 03 9C 40 00 13 2B B0  [V len=8]
[PKT] 02 06 9C 49 00 03 36 7E 02 10 96 01 03 93 FF  [V len=15]
[PKT] 02 03 9C 40 00 13 2B B0 02 20 32 04 12 74 82 00 05 48 60 00 01 40 00 20 01 58 48 60 14 02 46 19 00 E2 FE  [? len=35]
[PKT] 02 06 9C 4C 00 48 66 48 02 10 C6 01 48 16 FA  [V len=15]
[PKT] 02 03 9C 40 00 13 2B B0 02 20 92 04 12 74 82 02 FD 00 0A 60 00 01 40 00 20 01 58 48 60 14 02 46 19 00 E3 F8  [? len=36]
[PKT] 61 00 AF 00 00 04 03 00 D2 07 B4 1A 07 0B 16 26 06 03 03 00 00 40 1E 10 1F AC 76  [V len=27]
[PKT] 61 00 00 04 00 04 03 00 D2 07 B4 1A 07 0B 16 26 06 07 03 00 00 40 1E 10 BD 9A  [V len=26]
[PKT] 02 03 9C 40 00 13 2B B0 02 20 92 04 27 74 82 02 05 48 60 00 01 40 04 03 00 40 58 48 60 14 02 46 19 00 78 FD  [? len=36]
[PKT] 02 06 9C 49 00 07 37 BD 02 10 96 01 07 53 FF  [V len=15]
[PKT] 02 03 9C 40 00 13 2B B0 02 E0 26 20 D0 82 27 14 58 48 60 00 01 C0 18 07 01 58 48 60 14 02 46 19 00 00 62 FB  [? len=36]
[PKT] 02 06 9C 49 00 07 37 BD 02 10 96 3F 07 53 FF  [V len=15]
[PKT] 02 03 9C 40 00 13 2B B0 02 20 92 04 12 74 82 00 05 48 60 00 01 40 04 07 01 58 48 60 14 02 46 19 00 88 F7  [? len=35]
[PKT] 61 00 AF 00 00 04 03 00 D2 07 B4 1A 07 0B 16 26 06 07 07 00 00 40 1E 10 1F E8 45  [V len=27]
[PKT] 61 00 00 04 00 04 03 00 D2 07 B4 1A 07 0B 16 26 06 0F 07 00 00 40 1E 10 35 DE  [V len=26]
[PKT] 02 03 9C 40 00 13 2B B0  [V len=8]
[PKT] 02 06 9C 49 00 0F 36 7B 02 F0 9C 52 0F D3 FF  [V len=15]
[PKT] 02 03 9C 40 00 13 2B B0 02 20 92 04 12 74 82 00 05 48 60 00 01 40 04 0F 01 58 48 60 14 02 46 19 00 6A F1  [? len=35]
[PKT] 02 06 9C 49 00 0F 36 7B 02 10 96 01 0F D3 FF  [V len=15]
[PKT] 02 03 9C 40 00 13 2B B0 02 20 92 04 12 74 82 00 7D 48 60 00 01 40 00 08 01 58 48 60 14 02 46 19 00 F1 FE  [? len=35]
[PKT] 61 00 AF 00 00 04 03 00 D2 07 B4 1A 07 0B 16 26 06 0F 0F 00 00 40 1E 10 1F 60 23  [V len=27]
[PKT] 61 00 00 00 00 04 03 00 D2 07 B4 1A 07 0B 16 26 06 0F 0F 00 00 40 1E 10 71 12  [V len=26]
[PKT] 02 03 9C 40 00 13 2B B0 02 20 92 04 12 74 82 00 05 48 60 00 01 40 00 0F 01 58 48 60 14 02 46 19 00 F1 FE  [? len=35]
[PKT] 02 06 9C 49 00 0F 36 7B 02 10 96 01 0F D3 FF  [V len=15]
[PKT] 02 03 9C 40 00 13 2B B0 02 20 F2 02 D0 82 27 04 58 48 60 00 01 40 00 0F 01 58 48 60 14 02 46 19 00 F1 FE  [? len=35]
[PKT] 61 00 AF 00 00 04 03 00 D2 07 B4 1A 07 0B 16 26 06 0F 0F 00 00 40 1E 10 1F 60 23  [V len=27]
[PKT] 61 00 00 04 00 04 03 00 D2 07 B4 1A 07 0B 16 26 06 1F 0F 00 00 40 1E 10 25 57  [V len=26]
[PKT] 02 03 9C 40 00 13 2B B0 02 20 92 04 27 74 82 00 05 48 60 00 01 40 00 F8 00 40 58 48 60 14 02 46 19 00 F1 FE  [? len=36]
[PKT] 02 06 9C 49 00 1F 37 B7 02 F0 9C 52 1F D3 FF  [V len=15]
[PKT] 02 03 9C 40 00 13 2B B0 02 20 32 04 12 74 82 00 05 48 60 00 01 40 00 04 01 58 48 60 14 02 46 19 00 35 C3  [? len=35]
[PKT] 02 06 9C 49 00 1F 37 B7 02 10 96 01 1F D3 FF  [V len=15]
[PKT] 02 03 9C 40 00 13 2B B0 02 03 92 04 12 74 82 00 05 48 60 00 01 01 00 04 01 58 48 60 14 02 46 19 00 35 C3  [? len=35]
[PKT] 61 00 AF 00 00 04 03 00 D2 07 B4 1A 07 0B 16 26 06 1F 1F 00 00 40 1E 10 1F 70 EE  [V len=27]
[PKT] 61 00 00 00 02 04 02 00 D2 07 B4 1A 07 0B 16 26 06 1F 1F 00 00 40 1E 10 4A 5D  [V len=26]
[PKT] 02 03 9C 40 00 13 2B B0 02 20 92 04 12 74 82 00 05 48 60 00 01 40 00 1F 01 58 48 60 14 02 46 19 00 00 4D F8  [? len=36]
[PKT] 02 06 9C 49 00 1F 37 B7 02 10 96 01 1F F3 B7  [V len=15]
[PKT] 02 03 9C 40 00 13 2B B0 02 20 32 04 12 74 82 00 05 48 60 00 01 40 00 04 01 58 48 60 14 02 46 19 00 35 C3  [? len=35]
[PKT] 02 06 9C 4D 00 40 36 4E 02 10 D6 01 40 93 FA  [V len=15]
[PKT] 02 03 9C 40 00 13 2B B0 02 20 92 04 12 74 82 02 58 48 60 00 01 40 00 04 01 58 48 00 01 14 02 46 19 00 9F F5  [? len=36]
[PKT] 61 00 AF 00 00 04 02 00 D2 07 B4 1A 07 0B 16 26 06 1F 1F 00 00 40 1E 10 1F 4D 12  [V len=27]
[PKT] 61 00 00 00 03 01 04 00 D2 07 B4 1A 07 0B 16 26 06 1F 1F 00 00 40 1E 10 5B C9  [V len=26]
[PKT] 02 03 9C 40 00 13 2B B0 02 20 92 04 12 74 82 01 58 48 60 00 01 40 00 04 01 58 48 00 01 14 02 46 19 00 9F D8  [? len=36]
[PKT] 02 06 9C 49 00 1F 37 B7 02 10 FE 52 1F D3 FF  [V len=15]
[PKT] 02 03 9C 40 00 13 2B B0 02 E0 26 20 D0 82 27 14 58 00 0A 60 00 01 40 00 04 01 58 48 00 01 14 02 46 19 00 9F D8  [? len=37]
[PKT] 02 06 9C 4B 00 82 57 DE 02 10 B6 01 82 95 FF  [V len=15]
[PKT] 02 03 9C 40 00 13 2B B0 02 20 92 04 12 74 82 02 05 48 40 00 01 40 00 04 01 82 48 00 01 14 02 46 19 00 3A E4  [? len=36]
[PKT] 02 06 9C 4D 00 80 36 1E 02 F0 9C 53 80 93 FC  [V len=15]
[PKT] 02 03 9C 40 00 13 2B B0 02 20 92 04 12 FC 12 24 58 48 40 00 01 40 00 04 01 00 30 48 80 14 02 46 19 00 C6 F2  [? len=36]
[PKT] 61 00 AF 00 00 01 04 00 DC 07 B4 1A 07 0B 16 26 06 1F 1F 00 00 40 1E 10 1F 6D AC  [V len=27]
[PKT] 61 00 00 00 01 05 04 00 DC 07 B4 1A 07 0B 16 26 06 1F 1F 00 00 40 1E 10 57 7F  [V len=26]
[PKT] 02 03 9C 40 00 13 2B B0 02 20 92 04 12 FC 27 24 58 48 40 00 01 40 00 04 01 00 30 48 80 14 02 46 19 00 C6 F2  [? len=36]
[PKT] 02 06 9C 49 00 1F 37 B7 02 10 96 01 1F D3 FF  [V len=15]
[PKT] 02 03 9C 40 00 13 2B B0 02 20 92 04 12 74 82 01 05 48 40 00 01 40 00 04 01 82 48 80 14 02 46 19 00 C6 F2  [? len=35]
[PKT] 02 06 9C 4B 00 6A 57 90  [V len=8]
[PKT] 02 03 9C 40 00 13 2B B0  [V len=8]
[PKT] 02 06 9C 4D 00 60 37 96 02 10 D6 01 60 93 FE  [V len=15]
[PKT] 02 03 9C 40 00 13 2B B0 02 20 92 04 27 74 82 02 30 48 80 00 01 40 00 04 01 82 48 60 14 00 A0 04 19 00 32 EC  [? len=36]
[PKT] 61 00 AF 00 00 05 03 00 DC 07 B4 1A 07 0B 16 26 06 1F 1F 00 00 40 1E 10 1F 29 5C  [V len=27]
[PKT] 61 00 00 00 01 03 03 00 DC 07 B4 1A 07 0B 16 26 06 1F 1F 00 00 40 1E 10 6E 82  [V len=26]
[PKT] 02 03 9C 40 00 13 2B B0 02 20 F2 02 D0 82 27 24 82 48 80 00 01 40 00 04 01 82 48 60 14 02 46 19 00 32 EC  [? len=35]
[PKT] 02 06 9C 49 00 1F 37 B7 02 10 96 01 1F 37 FB  [V len=15]
[PKT] 02 03 9C 40 00 13 2B B0 02 20 92 04 27 74 82 02 30 48 80 00 01 40 00 FC 00 40 82 48 60 14 02 46 19 00 32 EC  [V len=36]
[PKT] 02 06 9C 4B 00 A6 57 C5 02 10 B6 01 A6 55  [V len=14]
[PKT] 02 03 9C 40 00 13 2B B0 02 20 92 04 F2 10 12 24 82 48 80 00 01 40 00 04 01 A6 48 60 14 02 46 19 00 16 AA  [? len=35]
[PKT] 02 06 9C 4D 00 80 36 1E 02 10 D6 01 80 F3 1E  [V len=15]
[PKT] 02 03 9C 40 00 13 2B B0 02 20 92 04 12 74 82 02 30 48 60 00 01 40 00 1C 01 A6 48 80 14 02 46 19 00 BC 36  [? len=35]
[PKT] 61 00 AF 00 00 03 04 01 04 07 B4 1A 07 0B 16 27 06 1F 1F 00 00 40 1E 10 1F CE 4C  [V len=27]
[PKT] 61 00 00 00 01 04 04 01 04 07 B4 1A 07 0B 16 27 06 1F 1F 00 00 40 1E 10 6C D9  [V len=26]
[PKT] 02 03 9C 40 00 13 2B B0 02 20 F2 02 D0 82 27 24 82 48 60 00 01 40 00 04 01 A6 48 80 14 02 46 19 00 BC F3  [? len=35]
[PKT] 02 06 9C 49 00 1F 37 B7 02 10 96 01 1F 37 FB  [V len=15]
[PKT] 02 03 9C 40 00 13 2B B0 02 20 92 04 27 74 82 02 30 48 60 00 01 40 00 FC 00 40 A6 48 80 14 02 46 19 00 BC F3  [? len=36]
[PKT] 02 06 9C 4B 00 58 D6 45 02 10 B6 01 58 FD 45  [V len=15]
[PKT] 02 03 9C 40 00 13 2B B0 02 20 92 04 12 74 82 01 30 48 60 00 01 40 00 0C 01 58 48 80 14 02 46 19 00 C2 C2  [? len=35]
[PKT] 02 06 9C 4D 00 40 36 4E 02 10 D6 01 40 36 FA  [V len=15]
[PKT] 02 03 9C 40 00 13 2B B0 02 E0 26 20 D0 82 27 24 82 48 60 00 01 C0 00 1F 01 58 48 40 14 02 46 19 00 00 AA FF  [? len=36]
[PKT] 61 00 AF 00 00 04 02 00 D2 07 B4 1A 07 0B 16 27 06 1F 1F 00 00 40 1E 10 1F 1C D7  [V len=27]
[PKT] 61 00 00 00 40 00 02 00 D2 07 B4 1A 07 0B 16 27 06 1F 1F 00 00 00 1E 10 C0 04  [V len=26]
[PKT] 02 03 9C 40 00 13 2B B0 02 03 92 04 12 74 82 01 05 48 80 00 01 C0 00 04 01 58 48 40 14 02 46 19 00 62 FE  [? len=35]
[PKT] 02 06 9C 49 00 FF 36 3F 02 10 96 01 FF D3 FE  [V len=15]
[PKT] 02 03 9C 40 00 13 2B B0 02 20 72 20 D0 82 27 14 58 48 80 00 01 40 00 FF 01 58 48 40 14 02 46 19 00 D5 FF  [? len=35]
[PKT] 02 06 9C 49 00 FF 36 3F 02 10 FE 49 FF D3 FE  [V len=15]
[PKT] 02 03 9C 40 00 13 2B B0 02 20 92 04 12 74 82 01 05 48 80 00 01 40 00 00 40 58 48 40 14 02 46 19 00 D5 FF  [? len=35]
[PKT] 02 06 9C 4A 00 00 86 7F 02 10 A6 01 00 D8 FF  [V len=15]
[PKT] 02 03 9C 40 00 13 2B B0 02 20 92 04 12 74 82 00 05 48 80 00 01 40 00 00 00 05 48 40 14 02 46 19 00 85 D4  [? len=35]
[PKT] 02 06 9C 4B 00 50 D7 83 02 F0 9C 29 50 DD  [V len=14]
[PKT] 02 03 9C 40 00 13 2B B0 02 20 32 04 12 74 82 01 05 48 40 00 01 40 00 00 00 05 48 40 14 02 46 19 00 8E FE  [? len=35]
[PKT02 094D1FE03E060210D6 E32 009400 2 [[P0A0002201F000000011ED6 [P0000 0000000D207B4 100B 120100000011CCA4 [PKT]9013B02200F2 148 4000400054414 4100  [PKT]400F390FD3  [PKT094132B B0229041748005 40000000005480102 419008EFE  [0094033019DF [020912B020 01782 00 05 401 014000440104100 8F2  [? len=[P0209404BF09D [PKT] 040 13 B02 9017800001 04041046 0FC [006 4B 5010 B6 05D  [[PKT02 09C 40 12B  [[09C 040  [[PKT] 003 9C 400 12B 02 292 012 2440014004548 14 02 419 0056FF [PK610004000 B11627 11F 0111D [[PK61000000 002 0D2 B4 07 0 27 1F1F00 0040 110 32F  [PKT]09413 B02 292 1750 0040045400140419 00 5FB  [[02039C40013 B01F1548 400014000 40544104619005F [[PKT]02 06 90101901DF [V[PKT]09401202 90180040414046 16 [? 9C49 0196 1FB[02 0400 020 20 D8220544054840 14 4619 0F [0094040302 1D6040 3 [0204002B 0E022822440 0C000 015440 14041000 [? l[P60AF 0004 00D0100201D [V [6000 00 00400 B1A 01627 1F 100 04110 2 [PK0940 13 B0 [PKT094900 13B7 [PKT]09C 40 013 2B0 02 292 012 74 800484000 01 440 1046 1FA [09003B02 90D [PKT] 090 [V[PKT0A00 

=== Sat 11 Jul 2026 22:42:22 AEST — ended ===
